
**** 05/20/24 19:06:12 *********** Evaluation PSpice (Nov 1999) **************

 * C:\Users\CS Net Games\Desktop\4th 2ndSem\Electro lab\circuits\prelab102.sch


 ****     CIRCUIT DESCRIPTION


******************************************************************************




* Schematics Version 9.1 - Web Update 1
* Sat Apr 27 17:06:05 2024



** Analysis setup **
.DC LIN V_V1 0 20 1 
.tran 0ns 50ms 0 10u
.OP 


* From [PSPICE NETLIST] section of pspiceev.ini:
.lib "nom.lib"

.INC "prelab102.net"

**** INCLUDING prelab102.net ****
* Schematics Netlist *



V_V1         $N_0001 0 0V
V_V3         0 -15 15v
R_R2         $N_0001 $N_0002  10k  
X_U1         $N_0002 $N_0003 +15 -15 $N_0003 uA741
V_V2         +15 0 15v
R_R3         $N_0003 0  1k  

**** RESUMING prelab102.cir ****
.INC "prelab102.als"



**** INCLUDING prelab102.als ****
* Schematics Aliases *

.ALIASES
V_V1            V1(+=$N_0001 -=0 )
V_V3            V3(+=0 -=-15 )
R_R2            R2(1=$N_0001 2=$N_0002 )
X_U1            U1(+=$N_0002 -=$N_0003 V+=+15 V-=-15 OUT=$N_0003 )
V_V2            V2(+=+15 -=0 )
R_R3            R3(1=$N_0003 2=0 )
_    _(-15=-15)
_    _(+15=+15)
.ENDALIASES


**** RESUMING prelab102.cir ****
.probe


.END

**** 05/20/24 19:06:12 *********** Evaluation PSpice (Nov 1999) **************

 * C:\Users\CS Net Games\Desktop\4th 2ndSem\Electro lab\circuits\prelab102.sch


 ****     Diode MODEL PARAMETERS


******************************************************************************




               X_U1.dx         
          IS  800.000000E-18 
          RS    1            


**** 05/20/24 19:06:12 *********** Evaluation PSpice (Nov 1999) **************

 * C:\Users\CS Net Games\Desktop\4th 2ndSem\Electro lab\circuits\prelab102.sch


 ****     BJT MODEL PARAMETERS


******************************************************************************




               X_U1.qx         
               NPN             
          IS  800.000000E-18 
          BF   93.75         
          NF    1            
          BR    1            
          NR    1            
          CN    2.42         
           D     .87         


**** 05/20/24 19:06:12 *********** Evaluation PSpice (Nov 1999) **************

 * C:\Users\CS Net Games\Desktop\4th 2ndSem\Electro lab\circuits\prelab102.sch


 ****     SMALL SIGNAL BIAS SOLUTION       TEMPERATURE =   27.000 DEG C


******************************************************************************



 NODE   VOLTAGE     NODE   VOLTAGE     NODE   VOLTAGE     NODE   VOLTAGE


(  +15)   15.0000  (  -15)  -15.0000  (X_U1.6) 83.21E-09 (X_U1.7)-812.9E-06     

(X_U1.8)-812.9E-06 (X_U1.9)    0.0000 ($N_0001)    0.0000                       

($N_0002)-797.2E-06                   ($N_0003)-777.9E-06                       

(X_U1.10)    -.6085                   (X_U1.11)   14.9600                       

(X_U1.12)   14.9600                   (X_U1.13)    -.5946                       

(X_U1.14)    -.5946                   (X_U1.53)   14.0000                       

(X_U1.54)  -14.0000                   (X_U1.90)-698.2E-06                       

(X_U1.91)   40.0000                   (X_U1.92)  -40.0000                       

(X_U1.99)    0.0000                   




    VOLTAGE SOURCE CURRENTS
    NAME         CURRENT

    V_V1        -7.972E-08
    V_V3        -1.667E-03
    V_V2        -1.667E-03
    X_U1.vb      8.310E-13
    X_U1.vc      1.400E-11
    X_U1.ve      1.400E-11
    X_U1.vlim   -6.982E-07
    X_U1.vlp    -4.000E-11
    X_U1.vln    -4.000E-11

    TOTAL POWER DISSIPATION   5.00E-02  WATTS


**** 05/20/24 19:06:12 *********** Evaluation PSpice (Nov 1999) **************

 * C:\Users\CS Net Games\Desktop\4th 2ndSem\Electro lab\circuits\prelab102.sch


 ****     OPERATING POINT INFORMATION      TEMPERATURE =   27.000 DEG C


******************************************************************************






**** VOLTAGE-CONTROLLED CURRENT SOURCES


NAME         X_U1.ga     X_U1.gcm  
I-SOURCE    -3.628E-09  -3.627E-09


**** VOLTAGE-CONTROLLED VOLTAGE SOURCES


NAME         X_U1.egnd 
V-SOURCE     0.000E+00
I-SOURCE     6.521E-07


**** CURRENT-CONTROLLED CURRENT SOURCES


NAME         X_U1.fb   
I-SOURCE     8.938E-06


**** CURRENT-CONTROLLED VOLTAGE SOURCES


NAME         X_U1.hlim 
V-SOURCE    -6.982E-04
I-SOURCE     1.396E-15


**** DIODES


NAME         X_U1.dc     X_U1.de     X_U1.dlp    X_U1.dln    X_U1.dp   
MODEL        X_U1.dx     X_U1.dx     X_U1.dx     X_U1.dx     X_U1.dx   
ID          -1.40E-11   -1.40E-11   -4.00E-11   -4.00E-11   -3.00E-11 
VD          -1.40E+01   -1.40E+01   -4.00E+01   -4.00E+01   -3.00E+01 
REQ          1.00E+12    1.00E+12    1.00E+12    1.00E+12    1.00E+12 
CAP          0.00E+00    0.00E+00    0.00E+00    0.00E+00    0.00E+00 


**** BIPOLAR JUNCTION TRANSISTORS


NAME         X_U1.q1     X_U1.q2   
MODEL        X_U1.qx     X_U1.qx   
IB           7.98E-08    7.97E-08 
IC           7.48E-06    7.48E-06 
VBE          5.94E-01    5.94E-01 
VBC         -1.50E+01   -1.50E+01 
VCE          1.56E+01    1.56E+01 
BETADC       9.38E+01    9.38E+01 
GM           2.89E-04    2.89E-04 
RPI          3.24E+05    3.24E+05 
RX           0.00E+00    0.00E+00 
RO           1.00E+12    1.00E+12 
CBE          0.00E+00    0.00E+00 
CBC          0.00E+00    0.00E+00 
CJS          0.00E+00    0.00E+00 
BETAAC       9.38E+01    9.38E+01 
CBX/CBX2     0.00E+00    0.00E+00 
FT/FT2       4.60E+15    4.60E+15 


**** 05/20/24 19:06:12 *********** Evaluation PSpice (Nov 1999) **************

 * C:\Users\CS Net Games\Desktop\4th 2ndSem\Electro lab\circuits\prelab102.sch


 ****     INITIAL TRANSIENT SOLUTION       TEMPERATURE =   27.000 DEG C


******************************************************************************



 NODE   VOLTAGE     NODE   VOLTAGE     NODE   VOLTAGE     NODE   VOLTAGE


(  +15)   15.0000  (  -15)  -15.0000  (X_U1.6) 83.21E-09 (X_U1.7)-812.9E-06     

(X_U1.8)-812.9E-06 (X_U1.9)    0.0000 ($N_0001)    0.0000                       

($N_0002)-797.2E-06                   ($N_0003)-777.9E-06                       

(X_U1.10)    -.6085                   (X_U1.11)   14.9600                       

(X_U1.12)   14.9600                   (X_U1.13)    -.5946                       

(X_U1.14)    -.5946                   (X_U1.53)   14.0000                       

(X_U1.54)  -14.0000                   (X_U1.90)-698.2E-06                       

(X_U1.91)   40.0000                   (X_U1.92)  -40.0000                       

(X_U1.99)    0.0000                   




    VOLTAGE SOURCE CURRENTS
    NAME         CURRENT

    V_V1        -7.972E-08
    V_V3        -1.667E-03
    V_V2        -1.667E-03
    X_U1.vb      8.310E-13
    X_U1.vc      1.400E-11
    X_U1.ve      1.400E-11
    X_U1.vlim   -6.982E-07
    X_U1.vlp    -4.000E-11
    X_U1.vln    -4.000E-11

    TOTAL POWER DISSIPATION   5.00E-02  WATTS



          JOB CONCLUDED

          TOTAL JOB TIME             .28
