
**** 04/27/24 22:07:12 *********** Evaluation PSpice (Nov 1999) **************

 * C:\Users\CS Net Games\Desktop\4th 2ndSem\Electro lab\circuits\prelab104.sch


 ****     CIRCUIT DESCRIPTION


******************************************************************************




* Schematics Version 9.1 - Web Update 1
* Sat Apr 27 22:07:08 2024



** Analysis setup **
.tran 0ns 5m 0 10u
.OP 


* From [PSPICE NETLIST] section of pspiceev.ini:
.lib "nom.lib"

.INC "prelab104.net"

**** INCLUDING prelab104.net ****
* Schematics Netlist *



R_R1         $N_0002 $N_0001  100k  
X_U1         $N_0001 $N_0003 +15 -15 $N_0004 uA741
V_V3         $N_0003 0 DC 0 AC 0
+SIN 0 7.5 1k 0 0 0
V_V4         $N_0002 0 5V
R_R3         $N_0004 0  100MEG  
V_V1         +15 0 15v
V_V2         0 -15 15v
R_R2         $N_0001 $N_0004  500k  

**** RESUMING prelab104.cir ****
.INC "prelab104.als"



**** INCLUDING prelab104.als ****
* Schematics Aliases *

.ALIASES
R_R1            R1(1=$N_0002 2=$N_0001 )
X_U1            U1(+=$N_0001 -=$N_0003 V+=+15 V-=-15 OUT=$N_0004 )
V_V3            V3(+=$N_0003 -=0 )
V_V4            V4(+=$N_0002 -=0 )
R_R3            R3(1=$N_0004 2=0 )
V_V1            V1(+=+15 -=0 )
V_V2            V2(+=0 -=-15 )
R_R2            R2(1=$N_0001 2=$N_0004 )
_    _(+15=+15)
_    _(-15=-15)
.ENDALIASES


**** RESUMING prelab104.cir ****
.probe


.END

**** 04/27/24 22:07:12 *********** Evaluation PSpice (Nov 1999) **************

 * C:\Users\CS Net Games\Desktop\4th 2ndSem\Electro lab\circuits\prelab104.sch


 ****     Diode MODEL PARAMETERS


******************************************************************************




               X_U1.dx         
          IS  800.000000E-18 
          RS    1            


**** 04/27/24 22:07:12 *********** Evaluation PSpice (Nov 1999) **************

 * C:\Users\CS Net Games\Desktop\4th 2ndSem\Electro lab\circuits\prelab104.sch


 ****     BJT MODEL PARAMETERS


******************************************************************************




               X_U1.qx         
               NPN             
          IS  800.000000E-18 
          BF   93.75         
          NF    1            
          BR    1            
          NR    1            
          CN    2.42         
           D     .87         


**** 04/27/24 22:07:12 *********** Evaluation PSpice (Nov 1999) **************

 * C:\Users\CS Net Games\Desktop\4th 2ndSem\Electro lab\circuits\prelab104.sch


 ****     SMALL SIGNAL BIAS SOLUTION       TEMPERATURE =   27.000 DEG C


******************************************************************************



 NODE   VOLTAGE     NODE   VOLTAGE     NODE   VOLTAGE     NODE   VOLTAGE


(  +15)   15.0000  (  -15)  -15.0000  (X_U1.6)   -1.5411 (X_U1.7)   14.6160     

(X_U1.8)   14.6160 (X_U1.9)    0.0000 ($N_0001)    6.5886                       

($N_0002)    5.0000                   ($N_0003)    0.0000                       

($N_0004)   14.6140                   (X_U1.10)    5.9474                       

(X_U1.11)   15.0000                   (X_U1.12)   14.9180                       

(X_U1.13)    5.9474                   (X_U1.14)    5.9760                       

(X_U1.53)   14.0000                   (X_U1.54)  -14.0000                       

(X_U1.90)     .0325                   (X_U1.91)   40.0000                       

(X_U1.92)  -40.0000                   (X_U1.99)    0.0000                   




    VOLTAGE SOURCE CURRENTS
    NAME         CURRENT

    V_V3         1.506E-11
    V_V4         1.589E-05
    V_V1        -1.651E-03
    V_V2        -1.667E-03
    X_U1.vb     -1.541E-05
    X_U1.vc     -1.634E-05
    X_U1.ve      2.862E-11
    X_U1.vlim    3.253E-05
    X_U1.vlp    -3.997E-11
    X_U1.vln    -4.004E-11

    TOTAL POWER DISSIPATION   4.97E-02  WATTS


**** 04/27/24 22:07:12 *********** Evaluation PSpice (Nov 1999) **************

 * C:\Users\CS Net Games\Desktop\4th 2ndSem\Electro lab\circuits\prelab104.sch


 ****     OPERATING POINT INFORMATION      TEMPERATURE =   27.000 DEG C


******************************************************************************






**** VOLTAGE-CONTROLLED CURRENT SOURCES


NAME         X_U1.ga     X_U1.gcm  
I-SOURCE     1.545E-05   3.545E-08


**** VOLTAGE-CONTROLLED VOLTAGE SOURCES


NAME         X_U1.egnd 
V-SOURCE     0.000E+00
I-SOURCE    -3.208E-05


**** CURRENT-CONTROLLED CURRENT SOURCES


NAME         X_U1.fb   
I-SOURCE    -1.468E-01


**** CURRENT-CONTROLLED VOLTAGE SOURCES


NAME         X_U1.hlim 
V-SOURCE     3.253E-02
I-SOURCE    -6.507E-14


**** DIODES


NAME         X_U1.dc     X_U1.de     X_U1.dlp    X_U1.dln    X_U1.dp   
MODEL        X_U1.dx     X_U1.dx     X_U1.dx     X_U1.dx     X_U1.dx   
ID           1.63E-05   -2.86E-11   -4.00E-11   -4.00E-11   -3.00E-11 
VD           6.14E-01   -2.86E+01   -4.00E+01   -4.00E+01   -3.00E+01 
REQ          1.58E+03    1.00E+12    1.00E+12    1.00E+12    1.00E+12 
CAP          0.00E+00    0.00E+00    0.00E+00    0.00E+00    0.00E+00 


**** BIPOLAR JUNCTION TRANSISTORS


NAME         X_U1.q1     X_U1.q2   
MODEL        X_U1.qx     X_U1.qx   
IB          -1.51E-11    1.65E-07 
IC           2.41E-11    1.54E-05 
VBE         -5.95E+00    6.13E-01 
VBC         -1.50E+01   -8.33E+00 
VCE          9.05E+00    8.94E+00 
BETADC      -1.60E+00    9.38E+01 
GM           0.00E+00    5.97E-04 
RPI          9.38E+13    1.57E+05 
RX           0.00E+00    0.00E+00 
RO           1.00E+12    1.00E+12 
CBE          0.00E+00    0.00E+00 
CBC          0.00E+00    0.00E+00 
CJS          0.00E+00    0.00E+00 
BETAAC       0.00E+00    9.38E+01 
CBX/CBX2     0.00E+00    0.00E+00 
FT/FT2       0.00E+00    9.50E+15 


**** 04/27/24 22:07:12 *********** Evaluation PSpice (Nov 1999) **************

 * C:\Users\CS Net Games\Desktop\4th 2ndSem\Electro lab\circuits\prelab104.sch


 ****     INITIAL TRANSIENT SOLUTION       TEMPERATURE =   27.000 DEG C


******************************************************************************



 NODE   VOLTAGE     NODE   VOLTAGE     NODE   VOLTAGE     NODE   VOLTAGE


(  +15)   15.0000  (  -15)  -15.0000  (X_U1.6)   -1.5411 (X_U1.7)   14.6160     

(X_U1.8)   14.6160 (X_U1.9)    0.0000 ($N_0001)    6.5886                       

($N_0002)    5.0000                   ($N_0003)    0.0000                       

($N_0004)   14.6140                   (X_U1.10)    5.9474                       

(X_U1.11)   15.0000                   (X_U1.12)   14.9180                       

(X_U1.13)    5.9474                   (X_U1.14)    5.9760                       

(X_U1.53)   14.0000                   (X_U1.54)  -14.0000                       

(X_U1.90)     .0325                   (X_U1.91)   40.0000                       

(X_U1.92)  -40.0000                   (X_U1.99)    0.0000                   




    VOLTAGE SOURCE CURRENTS
    NAME         CURRENT

    V_V3         1.506E-11
    V_V4         1.589E-05
    V_V1        -1.651E-03
    V_V2        -1.667E-03
    X_U1.vb     -1.541E-05
    X_U1.vc     -1.634E-05
    X_U1.ve      2.862E-11
    X_U1.vlim    3.253E-05
    X_U1.vlp    -3.997E-11
    X_U1.vln    -4.004E-11

    TOTAL POWER DISSIPATION   4.97E-02  WATTS



          JOB CONCLUDED

          TOTAL JOB TIME             .05
