
**** 05/20/24 18:43:18 *********** Evaluation PSpice (Nov 1999) **************

 * C:\Users\CS Net Games\Desktop\4th 2ndSem\Electro lab\circuits\prelab101.sch


 ****     CIRCUIT DESCRIPTION


******************************************************************************




* Schematics Version 9.1 - Web Update 1
* Mon May 20 18:43:13 2024



** Analysis setup **
.OP 


* From [PSPICE NETLIST] section of pspiceev.ini:
.lib "nom.lib"

.INC "prelab101.net"

**** INCLUDING prelab101.net ****
* Schematics Netlist *



V_V1         +15 0 15v
V_V2         0 -15 15v
R_R2         $N_0002 $N_0001  10k  
R_R1         $N_0001 $N_0003  100k  
R_R3         $N_0004 $N_0001  100k  
X_U2         0 $N_0001 +15 -15 $N_0003 uA741
V_V3         $N_0002 0 -1.5
V_V4         $N_0004 0 6

**** RESUMING prelab101.cir ****
.INC "prelab101.als"



**** INCLUDING prelab101.als ****
* Schematics Aliases *

.ALIASES
V_V1            V1(+=+15 -=0 )
V_V2            V2(+=0 -=-15 )
R_R2            R2(1=$N_0002 2=$N_0001 )
R_R1            R1(1=$N_0001 2=$N_0003 )
R_R3            R3(1=$N_0004 2=$N_0001 )
X_U2            U2(+=0 -=$N_0001 V+=+15 V-=-15 OUT=$N_0003 )
V_V3            V3(+=$N_0002 -=0 )
V_V4            V4(+=$N_0004 -=0 )
_    _(+15=+15)
_    _(-15=-15)
.ENDALIASES


**** RESUMING prelab101.cir ****
.probe


.END

**** 05/20/24 18:43:18 *********** Evaluation PSpice (Nov 1999) **************

 * C:\Users\CS Net Games\Desktop\4th 2ndSem\Electro lab\circuits\prelab101.sch


 ****     Diode MODEL PARAMETERS


******************************************************************************




               X_U2.dx         
          IS  800.000000E-18 
          RS    1            


**** 05/20/24 18:43:18 *********** Evaluation PSpice (Nov 1999) **************

 * C:\Users\CS Net Games\Desktop\4th 2ndSem\Electro lab\circuits\prelab101.sch


 ****     BJT MODEL PARAMETERS


******************************************************************************




               X_U2.qx         
               NPN             
          IS  800.000000E-18 
          BF   93.75         
          NF    1            
          BR    1            
          NR    1            
          CN    2.42         
           D     .87         


**** 05/20/24 18:43:18 *********** Evaluation PSpice (Nov 1999) **************

 * C:\Users\CS Net Games\Desktop\4th 2ndSem\Electro lab\circuits\prelab101.sch


 ****     SMALL SIGNAL BIAS SOLUTION       TEMPERATURE =   27.000 DEG C


******************************************************************************



 NODE   VOLTAGE     NODE   VOLTAGE     NODE   VOLTAGE     NODE   VOLTAGE


(  +15)   15.0000  (  -15)  -15.0000  (X_U2.6)-852.0E-06 (X_U2.7)    9.0122     

(X_U2.8)    9.0122 (X_U2.9)    0.0000 ($N_0001)-26.03E-06                       

($N_0002)   -1.5000                   ($N_0003)    9.0077                       

($N_0004)    6.0000                   (X_U2.10)    -.6077                       

(X_U2.11)   14.9600                   (X_U2.12)   14.9600                       

(X_U2.13)    -.5938                   (X_U2.14)    -.5938                       

(X_U2.53)   14.0000                   (X_U2.54)  -14.0000                       

(X_U2.90)     .0902                   (X_U2.91)   40.0000                       

(X_U2.92)  -40.0000                   (X_U2.99)    0.0000                   




    VOLTAGE SOURCE CURRENTS
    NAME         CURRENT

    V_V1        -1.667E-03
    V_V2        -1.667E-03
    V_V3         1.500E-04
    V_V4        -6.000E-05
    X_U2.vb     -8.520E-09
    X_U2.vc      4.993E-12
    X_U2.ve      2.301E-11
    X_U2.vlim    9.025E-05
    X_U2.vlp    -3.991E-11
    X_U2.vln    -4.009E-11

    TOTAL POWER DISSIPATION   5.06E-02  WATTS


**** 05/20/24 18:43:18 *********** Evaluation PSpice (Nov 1999) **************

 * C:\Users\CS Net Games\Desktop\4th 2ndSem\Electro lab\circuits\prelab101.sch


 ****     OPERATING POINT INFORMATION      TEMPERATURE =   27.000 DEG C


******************************************************************************






**** VOLTAGE-CONTROLLED CURRENT SOURCES


NAME         X_U2.ga     X_U2.gcm  
I-SOURCE     4.897E-09  -3.622E-09


**** VOLTAGE-CONTROLLED VOLTAGE SOURCES


NAME         X_U2.egnd 
V-SOURCE     0.000E+00
I-SOURCE    -9.029E-05


**** CURRENT-CONTROLLED CURRENT SOURCES


NAME         X_U2.fb   
I-SOURCE    -9.015E-02


**** CURRENT-CONTROLLED VOLTAGE SOURCES


NAME         X_U2.hlim 
V-SOURCE     9.025E-02
I-SOURCE    -1.805E-13


**** DIODES


NAME         X_U2.dc     X_U2.de     X_U2.dlp    X_U2.dln    X_U2.dp   
MODEL        X_U2.dx     X_U2.dx     X_U2.dx     X_U2.dx     X_U2.dx   
ID          -4.99E-12   -2.30E-11   -3.99E-11   -4.01E-11   -3.00E-11 
VD          -4.99E+00   -2.30E+01   -3.99E+01   -4.01E+01   -3.00E+01 
REQ          1.00E+12    1.00E+12    1.00E+12    1.00E+12    1.00E+12 
CAP          0.00E+00    0.00E+00    0.00E+00    0.00E+00    0.00E+00 


**** BIPOLAR JUNCTION TRANSISTORS


NAME         X_U2.q1     X_U2.q2   
MODEL        X_U2.qx     X_U2.qx   
IB           7.97E-08    7.98E-08 
IC           7.47E-06    7.48E-06 
VBE          5.94E-01    5.94E-01 
VBC         -1.50E+01   -1.50E+01 
VCE          1.56E+01    1.56E+01 
BETADC       9.38E+01    9.38E+01 
GM           2.89E-04    2.89E-04 
RPI          3.24E+05    3.24E+05 
RX           0.00E+00    0.00E+00 
RO           1.00E+12    1.00E+12 
CBE          0.00E+00    0.00E+00 
CBC          0.00E+00    0.00E+00 
CJS          0.00E+00    0.00E+00 
BETAAC       9.38E+01    9.38E+01 
CBX/CBX2     0.00E+00    0.00E+00 
FT/FT2       4.60E+15    4.60E+15 



          JOB CONCLUDED

          TOTAL JOB TIME             .03
