
**** 04/29/24 19:53:40 *********** Evaluation PSpice (Nov 1999) **************

 * C:\Users\CS Net Games\Desktop\4th 2ndSem\Electro lab\circuits\prelab103.sch


 ****     CIRCUIT DESCRIPTION


******************************************************************************




* Schematics Version 9.1 - Web Update 1
* Sat Apr 27 20:26:48 2024



** Analysis setup **
.tran 0 50ms 0 10u
.OP 


* From [PSPICE NETLIST] section of pspiceev.ini:
.lib "nom.lib"

.INC "prelab103.net"

**** INCLUDING prelab103.net ****
* Schematics Netlist *



V_V2         +15 0 15v
R_R1         $N_0002 $N_0001  10k  
R_R3         $N_0003 0  1k  
X_U1         $N_0001 $N_0004 +15 -15 $N_0003 uA741
V_V1         0 -15 15v
V_V4         $N_0002 0 DC 0 AC 0
+PULSE -1 1 0 0.5m 0.5m 1n 1m
V_V3         $N_0004 0 1.5

**** RESUMING prelab103.cir ****
.INC "prelab103.als"



**** INCLUDING prelab103.als ****
* Schematics Aliases *

.ALIASES
V_V2            V2(+=+15 -=0 )
R_R1            R1(1=$N_0002 2=$N_0001 )
R_R3            R3(1=$N_0003 2=0 )
X_U1            U1(+=$N_0001 -=$N_0004 V+=+15 V-=-15 OUT=$N_0003 )
V_V1            V1(+=0 -=-15 )
V_V4            V4(+=$N_0002 -=0 )
V_V3            V3(+=$N_0004 -=0 )
_    _(+15=+15)
_    _(-15=-15)
.ENDALIASES


**** RESUMING prelab103.cir ****
.probe


.END

**** 04/29/24 19:53:40 *********** Evaluation PSpice (Nov 1999) **************

 * C:\Users\CS Net Games\Desktop\4th 2ndSem\Electro lab\circuits\prelab103.sch


 ****     Diode MODEL PARAMETERS


******************************************************************************




               X_U1.dx         
          IS  800.000000E-18 
          RS    1            


**** 04/29/24 19:53:40 *********** Evaluation PSpice (Nov 1999) **************

 * C:\Users\CS Net Games\Desktop\4th 2ndSem\Electro lab\circuits\prelab103.sch


 ****     BJT MODEL PARAMETERS


******************************************************************************




               X_U1.qx         
               NPN             
          IS  800.000000E-18 
          BF   93.75         
          NF    1            
          BR    1            
          NR    1            
          CN    2.42         
           D     .87         


WARNING -- Pulse Period < (Rise Time + Fall Time + Pulse Width) for V_V4
**** 04/29/24 19:53:40 *********** Evaluation PSpice (Nov 1999) **************

 * C:\Users\CS Net Games\Desktop\4th 2ndSem\Electro lab\circuits\prelab103.sch


 ****     SMALL SIGNAL BIAS SOLUTION       TEMPERATURE =   27.000 DEG C


******************************************************************************



 NODE   VOLTAGE     NODE   VOLTAGE     NODE   VOLTAGE     NODE   VOLTAGE


(  +15)   15.0000  (  -15)  -15.0000  (X_U1.6)    1.5070 (X_U1.7)  -15.3450     

(X_U1.8)  -15.3450 (X_U1.9)    0.0000 ($N_0001) 150.1E-09                       

($N_0002)    0.0000                   ($N_0003)  -14.6130                       

($N_0004)    1.5000                   (X_U1.10)     .8601                       

(X_U1.11)   14.9200                   (X_U1.12)   15.0000                       

(X_U1.13)     .8881                   (X_U1.14)     .8601                       

(X_U1.53)   14.0000                   (X_U1.54)  -14.0000                       

(X_U1.90)  -14.6300                   (X_U1.91)   40.0000                       

(X_U1.92)  -40.0000                   (X_U1.99)    0.0000                   




    VOLTAGE SOURCE CURRENTS
    NAME         CURRENT

    V_V2        -1.667E-03
    V_V1        -1.651E-03
    V_V4         1.501E-11
    V_V3        -1.607E-07
    X_U1.vb      1.507E-05
    X_U1.vc      2.861E-11
    X_U1.ve     -1.597E-05
    X_U1.vlim   -1.463E-02
    X_U1.vlp    -5.463E-11
    X_U1.vln    -2.537E-11

    TOTAL POWER DISSIPATION   4.98E-02  WATTS


**** 04/29/24 19:53:40 *********** Evaluation PSpice (Nov 1999) **************

 * C:\Users\CS Net Games\Desktop\4th 2ndSem\Electro lab\circuits\prelab103.sch


 ****     OPERATING POINT INFORMATION      TEMPERATURE =   27.000 DEG C


******************************************************************************






**** VOLTAGE-CONTROLLED CURRENT SOURCES


NAME         X_U1.ga     X_U1.gcm  
I-SOURCE    -1.506E-05   5.127E-09


**** VOLTAGE-CONTROLLED VOLTAGE SOURCES


NAME         X_U1.egnd 
V-SOURCE     0.000E+00
I-SOURCE     1.463E-02


**** CURRENT-CONTROLLED CURRENT SOURCES


NAME         X_U1.fb   
I-SOURCE     1.693E-01


**** CURRENT-CONTROLLED VOLTAGE SOURCES


NAME         X_U1.hlim 
V-SOURCE    -1.463E+01
I-SOURCE     2.926E-11


**** DIODES


NAME         X_U1.dc     X_U1.de     X_U1.dlp    X_U1.dln    X_U1.dp   
MODEL        X_U1.dx     X_U1.dx     X_U1.dx     X_U1.dx     X_U1.dx   
ID          -2.86E-11    1.60E-05   -5.46E-11   -2.54E-11   -3.00E-11 
VD          -2.86E+01    6.13E-01   -5.46E+01   -2.54E+01   -3.00E+01 
REQ          1.00E+12    1.62E+03    1.00E+12    1.00E+12    1.00E+12 
CAP          0.00E+00    0.00E+00    0.00E+00    0.00E+00    0.00E+00 


**** BIPOLAR JUNCTION TRANSISTORS


NAME         X_U1.q1     X_U1.q2   
MODEL        X_U1.qx     X_U1.qx   
IB           1.61E-07   -1.50E-11 
IC           1.51E-05    2.91E-11 
VBE          6.12E-01   -8.60E-01 
VBC         -1.34E+01   -1.50E+01 
VCE          1.40E+01    1.41E+01 
BETADC       9.38E+01   -1.94E+00 
GM           5.82E-04    0.00E+00 
RPI          1.61E+05    9.38E+13 
RX           0.00E+00    0.00E+00 
RO           1.00E+12    1.00E+12 
CBE          0.00E+00    0.00E+00 
CBC          0.00E+00    0.00E+00 
CJS          0.00E+00    0.00E+00 
BETAAC       9.38E+01    0.00E+00 
CBX/CBX2     0.00E+00    0.00E+00 
FT/FT2       9.27E+15    0.00E+00 


**** 04/29/24 19:53:40 *********** Evaluation PSpice (Nov 1999) **************

 * C:\Users\CS Net Games\Desktop\4th 2ndSem\Electro lab\circuits\prelab103.sch


 ****     INITIAL TRANSIENT SOLUTION       TEMPERATURE =   27.000 DEG C


******************************************************************************



 NODE   VOLTAGE     NODE   VOLTAGE     NODE   VOLTAGE     NODE   VOLTAGE


(  +15)   15.0000  (  -15)  -15.0000  (X_U1.6)    1.5070 (X_U1.7)  -15.3450     

(X_U1.8)  -15.3450 (X_U1.9)    0.0000 ($N_0001)   -1.0000                       

($N_0002)   -1.0000                   ($N_0003)  -14.6130                       

($N_0004)    1.5000                   (X_U1.10)     .8601                       

(X_U1.11)   14.9200                   (X_U1.12)   15.0000                       

(X_U1.13)     .8881                   (X_U1.14)     .8601                       

(X_U1.53)   14.0000                   (X_U1.54)  -14.0000                       

(X_U1.90)  -14.6300                   (X_U1.91)   40.0000                       

(X_U1.92)  -40.0000                   (X_U1.99)    0.0000                   




    VOLTAGE SOURCE CURRENTS
    NAME         CURRENT

    V_V2        -1.667E-03
    V_V1        -1.651E-03
    V_V4         1.602E-11
    V_V3        -1.607E-07
    X_U1.vb      1.507E-05
    X_U1.vc      2.861E-11
    X_U1.ve     -1.597E-05
    X_U1.vlim   -1.463E-02
    X_U1.vlp    -5.463E-11
    X_U1.vln    -2.537E-11

    TOTAL POWER DISSIPATION   4.98E-02  WATTS



          JOB CONCLUDED

          TOTAL JOB TIME             .41
