
**** 03/24/24 02:33:19 *********** Evaluation PSpice (Nov 1999) **************

 * C:\Users\CS Net Games\Desktop\4th 2ndSem\Electro lab\circuits\Prelab6N2.sch


 ****     CIRCUIT DESCRIPTION


******************************************************************************




* Schematics Version 9.1 - Web Update 1
* Sun Mar 24 02:33:15 2024



** Analysis setup **
.tran 0ns 25ms 0 10u
.OP 


* From [PSPICE NETLIST] section of pspiceev.ini:
.lib "nom.lib"

.INC "Prelab6N2.net"

**** INCLUDING Prelab6N2.net ****
* Schematics Netlist *



V_V2         $N_0001 0 DC 0.53 AC 0
+SIN 0 5 200 0 0 0
R_Dana_1200031         0 $N_0002  10k  
D_D1         $N_0002 $N_0001 D1N4002 

**** RESUMING Prelab6N2.cir ****
.INC "Prelab6N2.als"



**** INCLUDING Prelab6N2.als ****
* Schematics Aliases *

.ALIASES
V_V2            V2(+=$N_0001 -=0 )
R_Dana_1200031          Dana_1200031(1=0 2=$N_0002 )
D_D1            D1(1=$N_0002 2=$N_0001 )
.ENDALIASES


**** RESUMING Prelab6N2.cir ****
.probe


.END

**** 03/24/24 02:33:19 *********** Evaluation PSpice (Nov 1999) **************

 * C:\Users\CS Net Games\Desktop\4th 2ndSem\Electro lab\circuits\Prelab6N2.sch


 ****     Diode MODEL PARAMETERS


******************************************************************************




               D1N4002         
          IS   14.110000E-09 
           N    1.984        
         ISR  100.000000E-12 
         IKF   94.81         
          BV  100.1          
         IBV   10            
          RS     .03389      
          TT    4.761000E-06 
         CJO   51.170000E-12 
          VJ     .3905       
           M     .2762       


**** 03/24/24 02:33:19 *********** Evaluation PSpice (Nov 1999) **************

 * C:\Users\CS Net Games\Desktop\4th 2ndSem\Electro lab\circuits\Prelab6N2.sch


 ****     SMALL SIGNAL BIAS SOLUTION       TEMPERATURE =   27.000 DEG C


******************************************************************************



 NODE   VOLTAGE     NODE   VOLTAGE     NODE   VOLTAGE     NODE   VOLTAGE


($N_0001)     .5300                   ($N_0002) 142.4E-06                   




    VOLTAGE SOURCE CURRENTS
    NAME         CURRENT

    V_V2        -1.424E-08

    TOTAL POWER DISSIPATION   7.55E-09  WATTS


**** 03/24/24 02:33:19 *********** Evaluation PSpice (Nov 1999) **************

 * C:\Users\CS Net Games\Desktop\4th 2ndSem\Electro lab\circuits\Prelab6N2.sch


 ****     OPERATING POINT INFORMATION      TEMPERATURE =   27.000 DEG C


******************************************************************************






**** DIODES


NAME         D_D1      
MODEL        D1N4002   
ID          -1.42E-08 
VD          -5.30E-01 
REQ          6.74E+10 
CAP          4.04E-11 
**** 03/24/24 02:33:19 *********** Evaluation PSpice (Nov 1999) **************

 * C:\Users\CS Net Games\Desktop\4th 2ndSem\Electro lab\circuits\Prelab6N2.sch


 ****     INITIAL TRANSIENT SOLUTION       TEMPERATURE =   27.000 DEG C


******************************************************************************



 NODE   VOLTAGE     NODE   VOLTAGE     NODE   VOLTAGE     NODE   VOLTAGE


($N_0001)    0.0000                   ($N_0002)-2.736E-21                   




    VOLTAGE SOURCE CURRENTS
    NAME         CURRENT

    V_V2         2.736E-25

    TOTAL POWER DISSIPATION   0.00E+00  WATTS



          JOB CONCLUDED

          TOTAL JOB TIME             .09
