
**** 03/24/24 06:48:04 *********** Evaluation PSpice (Nov 1999) **************

 * C:\Users\CS Net Games\Desktop\4th 2ndSem\Electro lab\circuits\Prelab6N5.sch


 ****     CIRCUIT DESCRIPTION


******************************************************************************




* Schematics Version 9.1 - Web Update 1
* Sun Mar 24 06:48:01 2024



** Analysis setup **
.tran 0ns 25ms 0 10u
.STEP  V_V2 LIST 
+ 0,1.5,4
.OP 


* From [PSPICE NETLIST] section of pspiceev.ini:
.lib "nom.lib"

.INC "Prelab6N5.net"

**** INCLUDING Prelab6N5.net ****
* Schematics Netlist *



V_V1         $N_0001 0 DC 0 AC 0
+SIN 0 3 200 0 0 0
V_V2         $N_0002 0 0
D_D1         $N_0003 $N_0002 D1N4002 
C_C1         $N_0001 $N_0003  1n  

**** RESUMING Prelab6N5.cir ****
.INC "Prelab6N5.als"



**** INCLUDING Prelab6N5.als ****
* Schematics Aliases *

.ALIASES
V_V1            V1(+=$N_0001 -=0 )
V_V2            V2(+=$N_0002 -=0 )
D_D1            D1(1=$N_0003 2=$N_0002 )
C_C1            C1(1=$N_0001 2=$N_0003 )
.ENDALIASES


**** RESUMING Prelab6N5.cir ****
.probe


.END

**** 03/24/24 06:48:04 *********** Evaluation PSpice (Nov 1999) **************

 * C:\Users\CS Net Games\Desktop\4th 2ndSem\Electro lab\circuits\Prelab6N5.sch


 ****     Diode MODEL PARAMETERS


******************************************************************************




               D1N4002         
          IS   14.110000E-09 
           N    1.984        
         ISR  100.000000E-12 
         IKF   94.81         
          BV  100.1          
         IBV   10            
          RS     .03389      
          TT    4.761000E-06 
         CJO   51.170000E-12 
          VJ     .3905       
           M     .2762       


**** 03/24/24 06:48:04 *********** Evaluation PSpice (Nov 1999) **************

 * C:\Users\CS Net Games\Desktop\4th 2ndSem\Electro lab\circuits\Prelab6N5.sch


 ****     SMALL SIGNAL BIAS SOLUTION       TEMPERATURE =   27.000 DEG C

 ****     CURRENT STEP                     V_V2 =    0     


******************************************************************************



 NODE   VOLTAGE     NODE   VOLTAGE     NODE   VOLTAGE     NODE   VOLTAGE


($N_0001)    0.0000                   ($N_0002)    0.0000                       

($N_0003) 86.72E-15                   




    VOLTAGE SOURCE CURRENTS
    NAME         CURRENT

    V_V1         0.000E+00
    V_V2        -1.389E-28

    TOTAL POWER DISSIPATION   0.00E+00  WATTS


**** 03/24/24 06:48:04 *********** Evaluation PSpice (Nov 1999) **************

 * C:\Users\CS Net Games\Desktop\4th 2ndSem\Electro lab\circuits\Prelab6N5.sch


 ****     OPERATING POINT INFORMATION      TEMPERATURE =   27.000 DEG C

 ****     CURRENT STEP                     V_V2 =    0     


******************************************************************************






**** DIODES


NAME         D_D1      
MODEL        D1N4002   
ID           2.40E-20 
VD           8.67E-14 
REQ          3.61E+06 
CAP          5.25E-11 
**** 03/24/24 06:48:04 *********** Evaluation PSpice (Nov 1999) **************

 * C:\Users\CS Net Games\Desktop\4th 2ndSem\Electro lab\circuits\Prelab6N5.sch


 ****     INITIAL TRANSIENT SOLUTION       TEMPERATURE =   27.000 DEG C

 ****     CURRENT STEP                     V_V2 =    0     


******************************************************************************



 NODE   VOLTAGE     NODE   VOLTAGE     NODE   VOLTAGE     NODE   VOLTAGE


($N_0001)    0.0000                   ($N_0002)    0.0000                       

($N_0003) 86.72E-15                   




    VOLTAGE SOURCE CURRENTS
    NAME         CURRENT

    V_V1         0.000E+00
    V_V2        -1.389E-28

    TOTAL POWER DISSIPATION   0.00E+00  WATTS


**** 03/24/24 06:48:04 *********** Evaluation PSpice (Nov 1999) **************

 * C:\Users\CS Net Games\Desktop\4th 2ndSem\Electro lab\circuits\Prelab6N5.sch


 ****     SMALL SIGNAL BIAS SOLUTION       TEMPERATURE =   27.000 DEG C

 ****     CURRENT STEP                     V_V2 =    1.5   


******************************************************************************



 NODE   VOLTAGE     NODE   VOLTAGE     NODE   VOLTAGE     NODE   VOLTAGE


($N_0001)    0.0000                   ($N_0002)    1.5000                       

($N_0003)    1.5000                   




    VOLTAGE SOURCE CURRENTS
    NAME         CURRENT

    V_V1         0.000E+00
    V_V2         1.226E-15

    TOTAL POWER DISSIPATION  -1.84E-15  WATTS


**** 03/24/24 06:48:04 *********** Evaluation PSpice (Nov 1999) **************

 * C:\Users\CS Net Games\Desktop\4th 2ndSem\Electro lab\circuits\Prelab6N5.sch


 ****     OPERATING POINT INFORMATION      TEMPERATURE =   27.000 DEG C

 ****     CURRENT STEP                     V_V2 =    1.5   


******************************************************************************






**** DIODES


NAME         D_D1      
MODEL        D1N4002   
ID           1.52E-15 
VD           5.49E-09 
REQ          3.61E+06 
CAP          5.25E-11 
**** 03/24/24 06:48:04 *********** Evaluation PSpice (Nov 1999) **************

 * C:\Users\CS Net Games\Desktop\4th 2ndSem\Electro lab\circuits\Prelab6N5.sch


 ****     INITIAL TRANSIENT SOLUTION       TEMPERATURE =   27.000 DEG C

 ****     CURRENT STEP                     V_V2 =    1.5   


******************************************************************************



 NODE   VOLTAGE     NODE   VOLTAGE     NODE   VOLTAGE     NODE   VOLTAGE


($N_0001)    0.0000                   ($N_0002)    1.5000                       

($N_0003)    1.5000                   




    VOLTAGE SOURCE CURRENTS
    NAME         CURRENT

    V_V1         0.000E+00
    V_V2         1.226E-15

    TOTAL POWER DISSIPATION  -1.84E-15  WATTS


**** 03/24/24 06:48:04 *********** Evaluation PSpice (Nov 1999) **************

 * C:\Users\CS Net Games\Desktop\4th 2ndSem\Electro lab\circuits\Prelab6N5.sch


 ****     SMALL SIGNAL BIAS SOLUTION       TEMPERATURE =   27.000 DEG C

 ****     CURRENT STEP                     V_V2 =    4     


******************************************************************************



 NODE   VOLTAGE     NODE   VOLTAGE     NODE   VOLTAGE     NODE   VOLTAGE


($N_0001)    0.0000                   ($N_0002)    4.0000                       

($N_0003)    4.0000                   




    VOLTAGE SOURCE CURRENTS
    NAME         CURRENT

    V_V1         0.000E+00
    V_V2         4.439E-15

    TOTAL POWER DISSIPATION  -1.78E-14  WATTS


**** 03/24/24 06:48:04 *********** Evaluation PSpice (Nov 1999) **************

 * C:\Users\CS Net Games\Desktop\4th 2ndSem\Electro lab\circuits\Prelab6N5.sch


 ****     OPERATING POINT INFORMATION      TEMPERATURE =   27.000 DEG C

 ****     CURRENT STEP                     V_V2 =    4     


******************************************************************************






**** DIODES


NAME         D_D1      
MODEL        D1N4002   
ID           1.46E-14 
VD           5.26E-08 
REQ          3.61E+06 
CAP          5.25E-11 
**** 03/24/24 06:48:04 *********** Evaluation PSpice (Nov 1999) **************

 * C:\Users\CS Net Games\Desktop\4th 2ndSem\Electro lab\circuits\Prelab6N5.sch


 ****     INITIAL TRANSIENT SOLUTION       TEMPERATURE =   27.000 DEG C

 ****     CURRENT STEP                     V_V2 =    4     


******************************************************************************



 NODE   VOLTAGE     NODE   VOLTAGE     NODE   VOLTAGE     NODE   VOLTAGE


($N_0001)    0.0000                   ($N_0002)    4.0000                       

($N_0003)    4.0000                   




    VOLTAGE SOURCE CURRENTS
    NAME         CURRENT

    V_V1         0.000E+00
    V_V2         4.439E-15

    TOTAL POWER DISSIPATION  -1.78E-14  WATTS



          JOB CONCLUDED

          TOTAL JOB TIME             .33
