
**** 03/02/24 14:29:51 *********** Evaluation PSpice (Nov 1999) **************

 * C:\Users\CS Net Games\Desktop\4th 2ndSem\Electro lab\circuits\Schematic1.sch


 ****     CIRCUIT DESCRIPTION


******************************************************************************




* Schematics Version 9.1 - Web Update 1
* Sat Mar 02 14:29:47 2024



** Analysis setup **
.OP 


* From [PSPICE NETLIST] section of pspiceev.ini:
.lib "nom.lib"

.INC "Schematic1.net"

**** INCLUDING Schematic1.net ****
* Schematics Netlist *



V_Vs         $N_0001 0 15V
R_R5         $N_0003 $N_0002  3.3k  
R_R6         0 $N_0003  4.7k  
R_R4         $N_0001 $N_0003  1k  
R_R1         0 $N_0002  1k  
R_Rx         $N_0003 $N_0002  1k  

**** RESUMING Schematic1.cir ****
.INC "Schematic1.als"



**** INCLUDING Schematic1.als ****
* Schematics Aliases *

.ALIASES
V_Vs            Vs(+=$N_0001 -=0 )
R_R5            R5(1=$N_0003 2=$N_0002 )
R_R6            R6(1=0 2=$N_0003 )
R_R4            R4(1=$N_0001 2=$N_0003 )
R_R1            R1(1=0 2=$N_0002 )
R_Rx            Rx(1=$N_0003 2=$N_0002 )
.ENDALIASES


**** RESUMING Schematic1.cir ****
.probe


.END

**** 03/02/24 14:29:51 *********** Evaluation PSpice (Nov 1999) **************

 * C:\Users\CS Net Games\Desktop\4th 2ndSem\Electro lab\circuits\Schematic1.sch


 ****     SMALL SIGNAL BIAS SOLUTION       TEMPERATURE =   27.000 DEG C


******************************************************************************



 NODE   VOLTAGE     NODE   VOLTAGE     NODE   VOLTAGE     NODE   VOLTAGE


($N_0001)   15.0000                   ($N_0002)    4.7718                       

($N_0003)    8.4338                   




    VOLTAGE SOURCE CURRENTS
    NAME         CURRENT

    V_Vs        -6.566E-03

    TOTAL POWER DISSIPATION   9.85E-02  WATTS


**** 03/02/24 14:29:51 *********** Evaluation PSpice (Nov 1999) **************

 * C:\Users\CS Net Games\Desktop\4th 2ndSem\Electro lab\circuits\Schematic1.sch


 ****     OPERATING POINT INFORMATION      TEMPERATURE =   27.000 DEG C


******************************************************************************





          JOB CONCLUDED

          TOTAL JOB TIME            0.00
