
**** 03/02/24 20:16:11 *********** Evaluation PSpice (Nov 1999) **************

 * C:\Users\CS Net Games\Desktop\4th 2ndSem\Electro lab\circuits\Schematic42.sch


 ****     CIRCUIT DESCRIPTION


******************************************************************************




* Schematics Version 9.1 - Web Update 1
* Sat Mar 02 20:16:08 2024



** Analysis setup **
.OP 


* From [PSPICE NETLIST] section of pspiceev.ini:
.lib "nom.lib"

.INC "Schematic42.net"

**** INCLUDING Schematic42.net ****
* Schematics Netlist *



R_R6         0 $N_0001  4.7k  
R_Rx         $N_0001 $N_0002  1k  
V_Vs         $N_0003 0 5V
R_R4         $N_0003 $N_0001  1k  
V_Vs2         $N_0004 0 10V
R_R1         $N_0004 $N_0002  1000MEG  

**** RESUMING Schematic42.cir ****
.INC "Schematic42.als"



**** INCLUDING Schematic42.als ****
* Schematics Aliases *

.ALIASES
R_R6            R6(1=0 2=$N_0001 )
R_Rx            Rx(1=$N_0001 2=$N_0002 )
V_Vs            Vs(+=$N_0003 -=0 )
R_R4            R4(1=$N_0003 2=$N_0001 )
V_Vs2           Vs2(+=$N_0004 -=0 )
R_R1            R1(1=$N_0004 2=$N_0002 )
.ENDALIASES


**** RESUMING Schematic42.cir ****
.probe


.END

**** 03/02/24 20:16:11 *********** Evaluation PSpice (Nov 1999) **************

 * C:\Users\CS Net Games\Desktop\4th 2ndSem\Electro lab\circuits\Schematic42.sch


 ****     SMALL SIGNAL BIAS SOLUTION       TEMPERATURE =   27.000 DEG C


******************************************************************************



 NODE   VOLTAGE     NODE   VOLTAGE     NODE   VOLTAGE     NODE   VOLTAGE


($N_0001)    4.1228                   ($N_0002)    4.1228                       

($N_0003)    5.0000                   ($N_0004)   10.0000                   




    VOLTAGE SOURCE CURRENTS
    NAME         CURRENT

    V_Vs        -8.772E-04
    V_Vs2       -5.877E-09

    TOTAL POWER DISSIPATION   4.39E-03  WATTS


**** 03/02/24 20:16:11 *********** Evaluation PSpice (Nov 1999) **************

 * C:\Users\CS Net Games\Desktop\4th 2ndSem\Electro lab\circuits\Schematic42.sch


 ****     OPERATING POINT INFORMATION      TEMPERATURE =   27.000 DEG C


******************************************************************************





          JOB CONCLUDED

          TOTAL JOB TIME            0.00
