
**** 03/02/24 19:23:37 *********** Evaluation PSpice (Nov 1999) **************

 * C:\Users\CS Net Games\Desktop\4th 2ndSem\Electro lab\circuits\Schematic41.sch


 ****     CIRCUIT DESCRIPTION


******************************************************************************




* Schematics Version 9.1 - Web Update 1
* Sat Mar 02 19:23:33 2024



** Analysis setup **
.OP 


* From [PSPICE NETLIST] section of pspiceev.ini:
.lib "nom.lib"

.INC "Schematic41.net"

**** INCLUDING Schematic41.net ****
* Schematics Netlist *



R_R6         0 $N_0001  4.7k  
R_R4         $N_0002 $N_0001  1k  
R_Rx         $N_0001 $N_0003  1k  
R_R1         $N_0004 $N_0003  1k  
V_Vs         $N_0002 0 5V
V_Vs2         $N_0004 0 0V

**** RESUMING Schematic41.cir ****
.INC "Schematic41.als"



**** INCLUDING Schematic41.als ****
* Schematics Aliases *

.ALIASES
R_R6            R6(1=0 2=$N_0001 )
R_R4            R4(1=$N_0002 2=$N_0001 )
R_Rx            Rx(1=$N_0001 2=$N_0003 )
R_R1            R1(1=$N_0004 2=$N_0003 )
V_Vs            Vs(+=$N_0002 -=0 )
V_Vs2           Vs2(+=$N_0004 -=0 )
.ENDALIASES


**** RESUMING Schematic41.cir ****
.probe


.END

**** 03/02/24 19:23:37 *********** Evaluation PSpice (Nov 1999) **************

 * C:\Users\CS Net Games\Desktop\4th 2ndSem\Electro lab\circuits\Schematic41.sch


 ****     SMALL SIGNAL BIAS SOLUTION       TEMPERATURE =   27.000 DEG C


******************************************************************************



 NODE   VOLTAGE     NODE   VOLTAGE     NODE   VOLTAGE     NODE   VOLTAGE


($N_0001)    2.9193                   ($N_0002)    5.0000                       

($N_0003)    1.4596                   ($N_0004)    0.0000                   




    VOLTAGE SOURCE CURRENTS
    NAME         CURRENT

    V_Vs        -2.081E-03
    V_Vs2        1.460E-03

    TOTAL POWER DISSIPATION   1.04E-02  WATTS


**** 03/02/24 19:23:37 *********** Evaluation PSpice (Nov 1999) **************

 * C:\Users\CS Net Games\Desktop\4th 2ndSem\Electro lab\circuits\Schematic41.sch


 ****     OPERATING POINT INFORMATION      TEMPERATURE =   27.000 DEG C


******************************************************************************





          JOB CONCLUDED

          TOTAL JOB TIME            0.00
