
**** 03/02/24 17:22:44 *********** Evaluation PSpice (Nov 1999) **************

 * C:\Users\CS Net Games\Desktop\4th 2ndSem\Electro lab\circuits\Schematic2.sch


 ****     CIRCUIT DESCRIPTION


******************************************************************************




* Schematics Version 9.1 - Web Update 1
* Sat Mar 02 17:22:40 2024



** Analysis setup **
.OP 


* From [PSPICE NETLIST] section of pspiceev.ini:
.lib "nom.lib"

.INC "Schematic2.net"

**** INCLUDING Schematic2.net ****
* Schematics Netlist *



V_Vs         $N_0001 0 10V
R_R1         0 $N_0002  1k  
R_R6         0 $N_0003  4.7k  
R_R4         $N_0001 $N_0003  1k  
R_Rx         $N_0003 $N_0002  1k  

**** RESUMING Schematic2.cir ****
.INC "Schematic2.als"



**** INCLUDING Schematic2.als ****
* Schematics Aliases *

.ALIASES
V_Vs            Vs(+=$N_0001 -=0 )
R_R1            R1(1=0 2=$N_0002 )
R_R6            R6(1=0 2=$N_0003 )
R_R4            R4(1=$N_0001 2=$N_0003 )
R_Rx            Rx(1=$N_0003 2=$N_0002 )
.ENDALIASES


**** RESUMING Schematic2.cir ****
.probe


.END

**** 03/02/24 17:22:44 *********** Evaluation PSpice (Nov 1999) **************

 * C:\Users\CS Net Games\Desktop\4th 2ndSem\Electro lab\circuits\Schematic2.sch


 ****     SMALL SIGNAL BIAS SOLUTION       TEMPERATURE =   27.000 DEG C


******************************************************************************



 NODE   VOLTAGE     NODE   VOLTAGE     NODE   VOLTAGE     NODE   VOLTAGE


($N_0001)   10.0000                   ($N_0002)    2.9193                       

($N_0003)    5.8385                   




    VOLTAGE SOURCE CURRENTS
    NAME         CURRENT

    V_Vs        -4.161E-03

    TOTAL POWER DISSIPATION   4.16E-02  WATTS


**** 03/02/24 17:22:44 *********** Evaluation PSpice (Nov 1999) **************

 * C:\Users\CS Net Games\Desktop\4th 2ndSem\Electro lab\circuits\Schematic2.sch


 ****     OPERATING POINT INFORMATION      TEMPERATURE =   27.000 DEG C


******************************************************************************





          JOB CONCLUDED

          TOTAL JOB TIME            0.00
