
**** 03/30/24 17:46:24 *********** Evaluation PSpice (Nov 1999) **************

 * C:\Users\CS Net Games\Desktop\4th 2ndSem\Electro lab\circuits\CBase.sch


 ****     CIRCUIT DESCRIPTION


******************************************************************************




* Schematics Version 9.1 - Web Update 1
* Sat Mar 30 17:46:20 2024



** Analysis setup **
.tran 0ns 50ms 0 15u
.OP 


* From [PSPICE NETLIST] section of pspiceev.ini:
.lib "nom.lib"

.INC "CBase.net"

**** INCLUDING CBase.net ****
* Schematics Netlist *



R_R1         +10v $N_0001  4.7k  
C_C3         0 $N_0002  1u  
R_R5         0 $N_0003  1k  
V_V2         +10v 0 10v
C_C1         0 $N_0004  100n  
Q_Q1         $N_0001 $N_0002 $N_0003 Q2N2222
R_R3         0 $N_0002  22k  
R_R4         +10v $N_0002  100k  
C_C2_Dana         $N_0001 $N_0005  1u  
R_R6         $N_0004 $N_0003  0.47k  
V_V1         $N_0005 0  
+SIN 0 0.37 1k 0 0 0

**** RESUMING CBase.cir ****
.INC "CBase.als"



**** INCLUDING CBase.als ****
* Schematics Aliases *

.ALIASES
R_R1            R1(1=+10v 2=$N_0001 )
C_C3            C3(1=0 2=$N_0002 )
R_R5            R5(1=0 2=$N_0003 )
V_V2            V2(+=+10v -=0 )
C_C1            C1(1=0 2=$N_0004 )
Q_Q1            Q1(c=$N_0001 b=$N_0002 e=$N_0003 )
R_R3            R3(1=0 2=$N_0002 )
R_R4            R4(1=+10v 2=$N_0002 )
C_C2_Dana          C2_Dana(1=$N_0001 2=$N_0005 )
R_R6            R6(1=$N_0004 2=$N_0003 )
V_V1            V1(+=$N_0005 -=0 )
_    _(+10v=+10v)
.ENDALIASES


**** RESUMING CBase.cir ****
.probe


.END

**** 03/30/24 17:46:24 *********** Evaluation PSpice (Nov 1999) **************

 * C:\Users\CS Net Games\Desktop\4th 2ndSem\Electro lab\circuits\CBase.sch


 ****     BJT MODEL PARAMETERS


******************************************************************************




               Q2N2222         
               NPN             
          IS   14.340000E-15 
          BF  255.9          
          NF    1            
         VAF   74.03         
         IKF     .2847       
         ISE   14.340000E-15 
          NE    1.307        
          BR    6.092        
          NR    1            
          RB   10            
          RC    1            
         CJE   22.010000E-12 
         MJE     .377        
         CJC    7.306000E-12 
         MJC     .3416       
          TF  411.100000E-12 
         XTF    3            
         VTF    1.7          
         ITF     .6          
          TR   46.910000E-09 
         XTB    1.5          
          CN    2.42         
           D     .87         


**** 03/30/24 17:46:24 *********** Evaluation PSpice (Nov 1999) **************

 * C:\Users\CS Net Games\Desktop\4th 2ndSem\Electro lab\circuits\CBase.sch


 ****     SMALL SIGNAL BIAS SOLUTION       TEMPERATURE =   27.000 DEG C


******************************************************************************



 NODE   VOLTAGE     NODE   VOLTAGE     NODE   VOLTAGE     NODE   VOLTAGE


( +10v)   10.0000  ($N_0001)    5.1555                   ($N_0002)    1.6830    

($N_0003)    1.0374                   ($N_0004)    1.0374                       

($N_0005)    0.0000                   




    VOLTAGE SOURCE CURRENTS
    NAME         CURRENT

    V_V2        -1.114E-03
    V_V1         0.000E+00

    TOTAL POWER DISSIPATION   1.11E-02  WATTS


**** 03/30/24 17:46:24 *********** Evaluation PSpice (Nov 1999) **************

 * C:\Users\CS Net Games\Desktop\4th 2ndSem\Electro lab\circuits\CBase.sch


 ****     OPERATING POINT INFORMATION      TEMPERATURE =   27.000 DEG C


******************************************************************************






**** BIPOLAR JUNCTION TRANSISTORS


NAME         Q_Q1      
MODEL        Q2N2222   
IB           6.67E-06 
IC           1.03E-03 
VBE          6.46E-01 
VBC         -3.47E+00 
VCE          4.12E+00 
BETADC       1.54E+02 
GM           3.97E-02 
RPI          4.30E+03 
RX           1.00E+01 
RO           7.52E+04 
CBE          5.27E-11 
CBC          4.05E-12 
CJS          0.00E+00 
BETAAC       1.71E+02 
CBX/CBX2     0.00E+00 
FT/FT2       1.11E+08 


**** 03/30/24 17:46:24 *********** Evaluation PSpice (Nov 1999) **************

 * C:\Users\CS Net Games\Desktop\4th 2ndSem\Electro lab\circuits\CBase.sch


 ****     INITIAL TRANSIENT SOLUTION       TEMPERATURE =   27.000 DEG C


******************************************************************************



 NODE   VOLTAGE     NODE   VOLTAGE     NODE   VOLTAGE     NODE   VOLTAGE


( +10v)   10.0000  ($N_0001)    5.1555                   ($N_0002)    1.6830    

($N_0003)    1.0374                   ($N_0004)    1.0374                       

($N_0005)    0.0000                   




    VOLTAGE SOURCE CURRENTS
    NAME         CURRENT

    V_V2        -1.114E-03
    V_V1         0.000E+00

    TOTAL POWER DISSIPATION   1.11E-02  WATTS



          JOB CONCLUDED

          TOTAL JOB TIME             .16
