
**** 03/30/24 03:23:14 *********** Evaluation PSpice (Nov 1999) **************

 * C:\Users\CS Net Games\Desktop\4th 2ndSem\Electro lab\circuits\CCollecter.sch


 ****     CIRCUIT DESCRIPTION


******************************************************************************




* Schematics Version 9.1 - Web Update 1
* Sat Mar 30 03:23:10 2024



** Analysis setup **
.tran 0ns 50ms 0 11u
.OP 


* From [PSPICE NETLIST] section of pspiceev.ini:
.lib "nom.lib"

.INC "CCollecter.net"

**** INCLUDING CCollecter.net ****
* Schematics Netlist *



R_R6         0 $N_0001  100Mega  
V_V2         +10v 0 10v
C_C2         $N_0002 $N_0003  100n  
R_R1         $N_0004 +10v  47k  
Q_Q1         +10v $N_0004 $N_0005 Q2N2222
R_R3         $N_0004 0  22k  
R_R2         0 $N_0005  1k  
C_C1_Dana         $N_0005 $N_0001  1u  
V_V1         $N_0002 0  
+SIN 0 8.39V 1k 0 0 0
R_R4         $N_0003 $N_0004  100k  

**** RESUMING CCollecter.cir ****
.INC "CCollecter.als"



**** INCLUDING CCollecter.als ****
* Schematics Aliases *

.ALIASES
R_R6            R6(1=0 2=$N_0001 )
V_V2            V2(+=+10v -=0 )
C_C2            C2(1=$N_0002 2=$N_0003 )
R_R1            R1(1=$N_0004 2=+10v )
Q_Q1            Q1(c=+10v b=$N_0004 e=$N_0005 )
R_R3            R3(1=$N_0004 2=0 )
R_R2            R2(1=0 2=$N_0005 )
C_C1_Dana          C1_Dana(1=$N_0005 2=$N_0001 )
V_V1            V1(+=$N_0002 -=0 )
R_R4            R4(1=$N_0003 2=$N_0004 )
_    _(+10v=+10v)
.ENDALIASES


**** RESUMING CCollecter.cir ****
.probe


.END

**** 03/30/24 03:23:14 *********** Evaluation PSpice (Nov 1999) **************

 * C:\Users\CS Net Games\Desktop\4th 2ndSem\Electro lab\circuits\CCollecter.sch


 ****     BJT MODEL PARAMETERS


******************************************************************************




               Q2N2222         
               NPN             
          IS   14.340000E-15 
          BF  255.9          
          NF    1            
         VAF   74.03         
         IKF     .2847       
         ISE   14.340000E-15 
          NE    1.307        
          BR    6.092        
          NR    1            
          RB   10            
          RC    1            
         CJE   22.010000E-12 
         MJE     .377        
         CJC    7.306000E-12 
         MJC     .3416       
          TF  411.100000E-12 
         XTF    3            
         VTF    1.7          
         ITF     .6          
          TR   46.910000E-09 
         XTB    1.5          
          CN    2.42         
           D     .87         


**** 03/30/24 03:23:14 *********** Evaluation PSpice (Nov 1999) **************

 * C:\Users\CS Net Games\Desktop\4th 2ndSem\Electro lab\circuits\CCollecter.sch


 ****     SMALL SIGNAL BIAS SOLUTION       TEMPERATURE =   27.000 DEG C


******************************************************************************



 NODE   VOLTAGE     NODE   VOLTAGE     NODE   VOLTAGE     NODE   VOLTAGE


( +10v)   10.0000  ($N_0001)    0.0000                   ($N_0002)    0.0000    

($N_0003)    2.9882                   ($N_0004)    2.9882                       

($N_0005)    2.3228                   




    VOLTAGE SOURCE CURRENTS
    NAME         CURRENT

    V_V2        -2.459E-03
    V_V1         0.000E+00

    TOTAL POWER DISSIPATION   2.46E-02  WATTS


**** 03/30/24 03:23:14 *********** Evaluation PSpice (Nov 1999) **************

 * C:\Users\CS Net Games\Desktop\4th 2ndSem\Electro lab\circuits\CCollecter.sch


 ****     OPERATING POINT INFORMATION      TEMPERATURE =   27.000 DEG C


******************************************************************************






**** BIPOLAR JUNCTION TRANSISTORS


NAME         Q_Q1      
MODEL        Q2N2222   
IB           1.34E-05 
IC           2.31E-03 
VBE          6.65E-01 
VBC         -7.01E+00 
VCE          7.68E+00 
BETADC       1.73E+02 
GM           8.86E-02 
RPI          2.13E+03 
RX           1.00E+01 
RO           3.51E+04 
CBE          7.34E-11 
CBC          3.29E-12 
CJS          0.00E+00 
BETAAC       1.88E+02 
CBX/CBX2     0.00E+00 
FT/FT2       1.84E+08 


**** 03/30/24 03:23:14 *********** Evaluation PSpice (Nov 1999) **************

 * C:\Users\CS Net Games\Desktop\4th 2ndSem\Electro lab\circuits\CCollecter.sch


 ****     INITIAL TRANSIENT SOLUTION       TEMPERATURE =   27.000 DEG C


******************************************************************************



 NODE   VOLTAGE     NODE   VOLTAGE     NODE   VOLTAGE     NODE   VOLTAGE


( +10v)   10.0000  ($N_0001)    0.0000                   ($N_0002)    0.0000    

($N_0003)    2.9882                   ($N_0004)    2.9882                       

($N_0005)    2.3228                   




    VOLTAGE SOURCE CURRENTS
    NAME         CURRENT

    V_V2        -2.459E-03
    V_V1         0.000E+00

    TOTAL POWER DISSIPATION   2.46E-02  WATTS



          JOB CONCLUDED

          TOTAL JOB TIME             .20
