
**** 04/02/24 16:26:22 *********** Evaluation PSpice (Nov 1999) **************

 * C:\Users\CS Net Games\Desktop\4th 2ndSem\Electro lab\circuits\CMNEmitte1r.sch


 ****     CIRCUIT DESCRIPTION


******************************************************************************




* Schematics Version 9.1 - Web Update 1
* Tue Apr 02 16:26:22 2024



** Analysis setup **
.tran 0ns 50ms 0 11u
.OP 


* From [PSPICE NETLIST] section of pspiceev.ini:
.lib "nom.lib"

.INC "CMNEmitte1r.net"

**** INCLUDING CMNEmitte1r.net ****
* Schematics Netlist *



R_R1         $N_0001 +15v  22k  
R_R2         $N_0002 +15v  1k  
R_R4         0 $N_0003  100Mega  
R_R5         $N_0005 $N_0004  10k  
C_C1         $N_0006 $N_0005  1u  
V_V2         +15v 0 15v
C_C1_Dana         $N_0002 $N_0003  1u  
RT_R3         0 $N_0004 {(11.05k*(1-0))+.001}
RB_R3        $N_0004 $N_0001 {(11.05k*0)+.001}
Q_Q1         $N_0002 $N_0007 0 Q2N2222
V_V1         $N_0006 0  
+SIN 0 2.2 1k 0 0 0
R_R7         $N_0005 $N_0007  47k  

**** RESUMING CMNEmitte1r.cir ****
.INC "CMNEmitte1r.als"



**** INCLUDING CMNEmitte1r.als ****
* Schematics Aliases *

.ALIASES
R_R1            R1(1=$N_0001 2=+15v )
R_R2            R2(1=$N_0002 2=+15v )
R_R4            R4(1=0 2=$N_0003 )
R_R5            R5(1=$N_0005 2=$N_0004 )
C_C1            C1(1=$N_0006 2=$N_0005 )
V_V2            V2(+=+15v -=0 )
C_C1_Dana          C1_Dana(1=$N_0002 2=$N_0003 )
RT_R3            R3(1=0 t=$N_0004 )
RB_R3           R3(t=$N_0004 2=$N_0001 )
Q_Q1            Q1(c=$N_0002 b=$N_0007 e=0 )
V_V1            V1(+=$N_0006 -=0 )
R_R7            R7(1=$N_0005 2=$N_0007 )
_    _(+15v=+15v)
.ENDALIASES


**** RESUMING CMNEmitte1r.cir ****
.probe


.END

**** 04/02/24 16:26:22 *********** Evaluation PSpice (Nov 1999) **************

 * C:\Users\CS Net Games\Desktop\4th 2ndSem\Electro lab\circuits\CMNEmitte1r.sch


 ****     BJT MODEL PARAMETERS


******************************************************************************




               Q2N2222         
               NPN             
          IS   14.340000E-15 
          BF  255.9          
          NF    1            
         VAF   74.03         
         IKF     .2847       
         ISE   14.340000E-15 
          NE    1.307        
          BR    6.092        
          NR    1            
          RB   10            
          RC    1            
         CJE   22.010000E-12 
         MJE     .377        
         CJC    7.306000E-12 
         MJC     .3416       
          TF  411.100000E-12 
         XTF    3            
         VTF    1.7          
         ITF     .6          
          TR   46.910000E-09 
         XTB    1.5          
          CN    2.42         
           D     .87         


**** 04/02/24 16:26:22 *********** Evaluation PSpice (Nov 1999) **************

 * C:\Users\CS Net Games\Desktop\4th 2ndSem\Electro lab\circuits\CMNEmitte1r.sch


 ****     SMALL SIGNAL BIAS SOLUTION       TEMPERATURE =   27.000 DEG C


******************************************************************************



 NODE   VOLTAGE     NODE   VOLTAGE     NODE   VOLTAGE     NODE   VOLTAGE


( +15v)   15.0000  ($N_0001)    4.5232                   ($N_0002)    2.9381    

($N_0003)    0.0000                   ($N_0004)    4.5232                       

($N_0005)    3.8544                   ($N_0006)    0.0000                       

($N_0007)     .7111                   




    VOLTAGE SOURCE CURRENTS
    NAME         CURRENT

    V_V2        -1.254E-02
    V_V1         0.000E+00

    TOTAL POWER DISSIPATION   1.88E-01  WATTS


**** 04/02/24 16:26:22 *********** Evaluation PSpice (Nov 1999) **************

 * C:\Users\CS Net Games\Desktop\4th 2ndSem\Electro lab\circuits\CMNEmitte1r.sch


 ****     OPERATING POINT INFORMATION      TEMPERATURE =   27.000 DEG C


******************************************************************************






**** BIPOLAR JUNCTION TRANSISTORS


NAME         Q_Q1      
MODEL        Q2N2222   
IB           6.69E-05 
IC           1.21E-02 
VBE          7.11E-01 
VBC         -2.23E+00 
VCE          2.94E+00 
BETADC       1.80E+02 
GM           4.48E-01 
RPI          4.15E+02 
RX           1.00E+01 
RO           6.32E+03 
CBE          2.23E-10 
CBC          4.57E-12 
CJS          0.00E+00 
BETAAC       1.86E+02 
CBX/CBX2     0.00E+00 
FT/FT2       3.14E+08 


**** 04/02/24 16:26:22 *********** Evaluation PSpice (Nov 1999) **************

 * C:\Users\CS Net Games\Desktop\4th 2ndSem\Electro lab\circuits\CMNEmitte1r.sch


 ****     INITIAL TRANSIENT SOLUTION       TEMPERATURE =   27.000 DEG C


******************************************************************************



 NODE   VOLTAGE     NODE   VOLTAGE     NODE   VOLTAGE     NODE   VOLTAGE


( +15v)   15.0000  ($N_0001)    4.5232                   ($N_0002)    2.9381    

($N_0003)    0.0000                   ($N_0004)    4.5232                       

($N_0005)    3.8544                   ($N_0006)    0.0000                       

($N_0007)     .7111                   




    VOLTAGE SOURCE CURRENTS
    NAME         CURRENT

    V_V2        -1.254E-02
    V_V1         0.000E+00

    TOTAL POWER DISSIPATION   1.88E-01  WATTS



          JOB CONCLUDED

          TOTAL JOB TIME             .22
